
T2DCC 000:428 SEGGER J-Link V6.16c Log File (0000ms, 0027ms total)
T2DCC 000:428 DLL Compiled: Jun 16 2017 18:14:49 (0000ms, 0027ms total)
T2DCC 000:428 Logging started @ 2017-12-31 11:18 (0000ms, 0027ms total)
T2DCC 000:428 JLINK_SetWarnOutHandler(...) (0000ms, 0027ms total)
T2DCC 000:428 JLINK_OpenEx(...)
Firmware: J-Link V9 compiled Jun 16 2017 16:15:10
Hardware: V9.40
S/N: 59404312
Feature(s): RDI, GDB, FlashDL, FlashBP, JFlashWEBSRV Webserver running on local port 19080 (0012ms, 0039ms total)
T2DCC 000:428   returns O.K. (0012ms, 0039ms total)
T2DCC 000:440 JLINK_GetEmuCaps()  returns 0xB9FF7BBF (0000ms, 0039ms total)
T2DCC 000:440 JLINK_TIF_GetAvailable(...) (0000ms, 0039ms total)
T2DCC 000:440 JLINK_SetErrorOutHandler(...) (0000ms, 0039ms total)
T2DCC 000:440 JLINK_ExecCommand("ProjectFile = "C:\Users\cyh\Desktop\97\fpga_step_v10_arm\MDK-ARM\JLinkSettings.ini"", ...).   returns 0x00 (0119ms, 0158ms total)
T2DCC 000:560 JLINK_ExecCommand("Device = STM32F407VETx", ...). Device "STM32F407VE" selected.  returns 0x00 (0003ms, 0161ms total)
T2DCC 000:563 JLINK_ExecCommand("DisableConnectionTimeout", ...).   returns 0x01 (0000ms, 0161ms total)
T2DCC 000:563 JLINK_GetHardwareVersion()  returns 0x16F30 (0000ms, 0161ms total)
T2DCC 000:564 JLINK_GetDLLVersion()  returns 61603 (0000ms, 0162ms total)
T2DCC 000:564 JLINK_GetFirmwareString(...) (0000ms, 0162ms total)
T2DCC 000:566 JLINK_GetDLLVersion()  returns 61603 (0000ms, 0162ms total)
T2DCC 000:566 JLINK_GetCompileDateTime() (0000ms, 0162ms total)
T2DCC 000:567 JLINK_GetFirmwareString(...) (0000ms, 0162ms total)
T2DCC 000:568 JLINK_GetHardwareVersion()  returns 0x16F30 (0000ms, 0162ms total)
T2DCC 000:577 JLINK_TIF_Select(JLINKARM_TIF_SWD)  returns 0x00 (0001ms, 0163ms total)
T2DCC 000:578 JLINK_SetSpeed(2000) (0000ms, 0163ms total)
T2DCC 000:578 JLINK_GetId() >0x10B TIF>Found SW-DP with ID 0x2BA01477 >0x0D TIF> >0x28 TIF> >0x0D TIF> >0x28 TIF> >0x0D TIF> >0x28 TIF> >0x0D TIF> >0x28 TIF> >0x0D TIF> >0x21 TIF> >0x0D TIF> >0x28 TIF> >0x0D TIF> >0x28 TIF> >0x0D TIF> >0x28 TIF> >0x0D TIF> >0x21 TIF> >0x0D TIF> >0x21 TIF> >0x0D TIF> >0x28 TIF> >0x0D TIF> >0x21 TIF> >0x0D TIF> >0x21 TIF> >0x0D TIF> >0x28 TIF> >0x0D TIF> >0x28 TIF> >0x0D TIF> >0x28 TIF> >0x0D TIF> >0x21 TIF> >0x0D TIF> >0x21 TIF> >0x0D TIF> >0x28 TIF> >0x0D TIF> >0x28 TIF>
 >0x0D TIF> >0x28 TIF> >0x0D TIF> >0x21 TIF> >0x0D TIF> >0x21 TIF> >0x0D TIF> >0x28 TIF> >0x0D TIF> >0x21 TIF> >0x0D TIF> >0x21 TIF> >0x0D TIF> >0x28 TIF> >0x0D TIF> >0x21 TIF> >0x0D TIF> >0x21 TIF> >0x10B TIF>Found SW-DP with ID 0x2BA01477 >0x0D TIF> >0x28 TIF> >0x0D TIF> >0x28 TIF> >0x0D TIF> >0x28 TIF> >0x0D TIF> >0x28 TIF> >0x0D TIF> >0x21 TIF> >0x0D TIF> >0x28 TIF>Scanning APs, stopping at first AHB-AP found. >0x0D TIF> >0x28 TIF> >0x0D TIF> >0x21 TIF> >0x0D TIF> >0x21 TIF>
AP[0] IDR: 0x24770011 (AHB-AP) >0x0D TIF> >0x28 TIF> >0x0D TIF> >0x21 TIF> >0x0D TIF> >0x21 TIF>AHB-AP ROM: 0xE00FF000 (Base addr. of first ROM table) >0x0D TIF> >0x28 TIF> >0x0D TIF> >0x28 TIF> >0x0D TIF> >0x28 TIF> >0x0D TIF> >0x21 TIF> >0x0D TIF> >0x21 TIF> >0x0D TIF> >0x28 TIF> >0x0D TIF> >0x21 TIF> >0x0D TIF> >0x21 TIF>CPUID reg: 0x410FC241. Implementer code: 0x41 (ARM)Found Cortex-M4 r0p1, Little endian. -- CPU_ReadMem(4 bytes @ 0xE000EDF0) -- CPU_WriteMem(4 bytes @ 0xE000EDF0)
 -- CPU_ReadMem(4 bytes @ 0xE0002000)FPUnit: 6 code (BP) slots and 2 literal slots -- CPU_ReadMem(4 bytes @ 0xE000EDFC) -- CPU_WriteMem(4 bytes @ 0xE000EDFC) -- CPU_ReadMem(4 bytes @ 0xE0001000) -- CPU_WriteMem(4 bytes @ 0xE0001000) -- CPU_ReadMem(4 bytes @ 0xE000ED88) -- CPU_WriteMem(4 bytes @ 0xE000ED88) -- CPU_ReadMem(4 bytes @ 0xE000ED88) -- CPU_WriteMem(4 bytes @ 0xE000ED88)CoreSight components:ROMTbl[0] @ E00FF000 -- CPU_ReadMem(16 bytes @ 0xE00FF000) -- CPU_ReadMem(16 bytes @ 0xE000EFF0)
 -- CPU_ReadMem(16 bytes @ 0xE000EFE0)ROMTbl[0][0]: E000E000, CID: B105E00D, PID: 000BB00C SCS -- CPU_ReadMem(16 bytes @ 0xE0001FF0) -- CPU_ReadMem(16 bytes @ 0xE0001FE0)ROMTbl[0][1]: E0001000, CID: B105E00D, PID: 003BB002 DWT -- CPU_ReadMem(16 bytes @ 0xE0002FF0) -- CPU_ReadMem(16 bytes @ 0xE0002FE0)ROMTbl[0][2]: E0002000, CID: B105E00D, PID: 002BB003 FPB -- CPU_ReadMem(16 bytes @ 0xE0000FF0) -- CPU_ReadMem(16 bytes @ 0xE0000FE0)ROMTbl[0][3]: E0000000, CID: B105E00D, PID: 003BB001 ITM
 -- CPU_ReadMem(16 bytes @ 0xE00FF010) -- CPU_ReadMem(16 bytes @ 0xE0040FF0) -- CPU_ReadMem(16 bytes @ 0xE0040FE0)ROMTbl[0][4]: E0040000, CID: B105900D, PID: 000BB9A1 TPIU -- CPU_ReadMem(16 bytes @ 0xE0041FF0) -- CPU_ReadMem(16 bytes @ 0xE0041FE0)ROMTbl[0][5]: E0041000, CID: B105900D, PID: 000BB925 ETM >0x0D TIF> >0x21 TIF>  returns 0x2BA01477 (0067ms, 0230ms total)
T2DCC 000:645 JLINK_GetDLLVersion()  returns 61603 (0000ms, 0230ms total)
T2DCC 000:645 JLINK_CORE_GetFound()  returns 0xE0000FF (0000ms, 0230ms total)
T2DCC 000:645 JLINK_GetDebugInfo(0x100 = JLINKARM_ROM_TABLE_ADDR_INDEX) -- Value=0xE00FF000  returns 0x00 (0000ms, 0230ms total)
T2DCC 000:647 JLINK_GetDebugInfo(0x100 = JLINKARM_ROM_TABLE_ADDR_INDEX) -- Value=0xE00FF000  returns 0x00 (0000ms, 0230ms total)
T2DCC 000:647 JLINK_GetDebugInfo(0x101 = JLINKARM_DEBUG_INFO_ETM_ADDR_INDEX) -- Value=0xE0041000  returns 0x00 (0000ms, 0230ms total)
T2DCC 000:647 JLINK_ReadMemEx(0xE0041FD0, 0x0020 Bytes, ..., Flags = 0x02000004) -- CPU_ReadMem(32 bytes @ 0xE0041FD0) - Data: 04 00 00 00 00 00 00 00 00 00 00 00 00 00 00 00 ...  returns 0x20 (0001ms, 0231ms total)
T2DCC 000:648 JLINK_GetDebugInfo(0x102 = JLINKARM_DEBUG_INFO_MTB_ADDR_INDEX) -- Value=0x00000000  returns 0x00 (0000ms, 0231ms total)
T2DCC 000:648 JLINK_GetDebugInfo(0x103 = JLINKARM_DEBUG_INFO_TPIU_ADDR_INDEX) -- Value=0xE0040000  returns 0x00 (0000ms, 0231ms total)
T2DCC 000:648 JLINK_GetDebugInfo(0x104 = JLINKARM_DEBUG_INFO_ITM_ADDR_INDEX) -- Value=0xE0000000  returns 0x00 (0000ms, 0231ms total)
T2DCC 000:648 JLINK_GetDebugInfo(0x105 = JLINKARM_DEBUG_INFO_DWT_ADDR_INDEX) -- Value=0xE0001000  returns 0x00 (0000ms, 0231ms total)
T2DCC 000:648 JLINK_GetDebugInfo(0x106 = JLINKARM_DEBUG_INFO_FPB_ADDR_INDEX) -- Value=0xE0002000  returns 0x00 (0000ms, 0231ms total)
T2DCC 000:648 JLINK_GetDebugInfo(0x107 = JLINKARM_DEBUG_INFO_NVIC_ADDR_INDEX) -- Value=0xE000E000  returns 0x00 (0000ms, 0231ms total)
T2DCC 000:648 JLINK_GetDebugInfo(0x10C = JLINKARM_DEBUG_INFO_DBG_ADDR_INDEX) -- Value=0xE000EDF0  returns 0x00 (0000ms, 0231ms total)
T2DCC 000:648 JLINK_ReadMemU32(0xE000EF40, 0x0001 Items, ...) -- CPU_ReadMem(4 bytes @ 0xE000EF40) - Data: 21 00 11 10  returns 0x01 (0000ms, 0231ms total)
T2DCC 000:648 JLINK_ReadMemU32(0xE000EF44, 0x0001 Items, ...) -- CPU_ReadMem(4 bytes @ 0xE000EF44) - Data: 11 00 00 11  returns 0x01 (0001ms, 0232ms total)
T2DCC 000:649 JLINK_ReadMemU32(0xE000ED00, 0x0001 Items, ...) -- CPU_ReadMem(4 bytes @ 0xE000ED00) - Data: 41 C2 0F 41  returns 0x01 (0000ms, 0232ms total)
T2DCC 000:649 JLINK_GetDebugInfo(0x10F = JLINKARM_DEBUG_INFO_HAS_CORTEX_M_SECURITY_EXT_INDEX) -- Value=0x00000000  returns 0x00 (0000ms, 0232ms total)
T2DCC 000:649 JLINK_SetResetType(JLINKARM_CM3_RESET_TYPE_NORMAL)  returns JLINKARM_CM3_RESET_TYPE_NORMAL (0000ms, 0232ms total)
T2DCC 000:649 JLINK_Reset() -- CPU is running -- CPU_WriteMem(4 bytes @ 0xE000EDF0) -- CPU is running -- CPU_WriteMem(4 bytes @ 0xE000EDFC) >0x35 TIF>Setting AIRCR.SYSRESETREQ -- CPU is running -- CPU_WriteMem(4 bytes @ 0xE000ED0C) >0x0D TIF> >0x28 TIF> -- CPU_ReadMem(4 bytes @ 0xE000ED0C) -- CPU_ReadMem(4 bytes @ 0xE000EDF0) -- CPU_ReadMem(4 bytes @ 0xE000EDF0) -- CPU_ReadMem(4 bytes @ 0xE000EDF0) -- CPU is running -- CPU_WriteMem(4 bytes @ 0xE000EDF0) -- CPU is running
 -- CPU_WriteMem(4 bytes @ 0xE000EDFC) -- CPU_ReadMem(4 bytes @ 0xE000EDF0) -- CPU_WriteMem(4 bytes @ 0xE0002000) -- CPU_ReadMem(4 bytes @ 0xE000EDFC) -- CPU_ReadMem(4 bytes @ 0xE0001000) (0070ms, 0302ms total)
T2DCC 000:719 JLINK_Halt()  returns 0x00 (0000ms, 0302ms total)
T2DCC 000:719 JLINK_ReadMemU32(0xE000EDF0, 0x0001 Items, ...) -- CPU_ReadMem(4 bytes @ 0xE000EDF0) - Data: 03 00 03 00  returns 0x01 (0001ms, 0303ms total)
T2DCC 000:720 JLINK_WriteU32(0xE000EDF0, 0xA05F0003) -- CPU_WriteMem(4 bytes @ 0xE000EDF0)  returns 0x00 (0000ms, 0303ms total)
T2DCC 000:720 JLINK_WriteU32(0xE000EDFC, 0x01000000) -- CPU_WriteMem(4 bytes @ 0xE000EDFC)  returns 0x00 (0001ms, 0304ms total)
T2DCC 000:729 JLINK_GetHWStatus(...)  returns 0x00 (0000ms, 0304ms total)
T2DCC 000:737 JLINK_GetNumBPUnits(Type = 0xFFFFFF00)  returns 0x06 (0000ms, 0304ms total)
T2DCC 000:737 JLINK_GetNumBPUnits(Type = 0xF0)  returns 0x2000 (0000ms, 0304ms total)
T2DCC 000:737 JLINK_GetNumWPUnits()  returns 0x04 (0000ms, 0304ms total)
T2DCC 000:743 JLINK_GetSpeed()  returns 0x7D0 (0000ms, 0304ms total)
T2DCC 000:747 JLINK_ReadMemU32(0xE000E004, 0x0001 Items, ...) -- CPU_ReadMem(4 bytes @ 0xE000E004) - Data: 02 00 00 00  returns 0x01 (0001ms, 0305ms total)
T2DCC 000:748 JLINK_ReadMemU32(0xE000E004, 0x0001 Items, ...) -- CPU_ReadMem(4 bytes @ 0xE000E004) - Data: 02 00 00 00  returns 0x01 (0000ms, 0305ms total)
T2DCC 000:748 JLINK_WriteMemEx(0xE0001000, 0x001C Bytes, ..., Flags = 0x02000004) - Data: 01 00 00 00 00 00 00 00 00 00 00 00 00 00 00 00 ... -- CPU_WriteMem(28 bytes @ 0xE0001000)  returns 0x1C (0001ms, 0306ms total)
T2DCC 000:749 JLINK_Halt()  returns 0x00 (0000ms, 0306ms total)
T2DCC 000:749 JLINK_IsHalted()  returns TRUE (0000ms, 0306ms total)
T2DCC 000:752 JLINK_WriteMem(0x20000000, 0x0188 Bytes, ...) - Data: 00 BE 0A E0 0D 78 2D 06 68 40 08 24 40 00 00 D3 ... -- CPU_WriteMem(392 bytes @ 0x20000000)  returns 0x188 (0003ms, 0309ms total)
T2DCC 000:755 JLINK_WriteReg(R0, 0x08000000)  returns 0x00 (0000ms, 0309ms total)
T2DCC 000:755 JLINK_WriteReg(R1, 0x0A037A00)  returns 0x00 (0000ms, 0309ms total)
T2DCC 000:755 JLINK_WriteReg(R2, 0x00000001)  returns 0x00 (0001ms, 0310ms total)
T2DCC 000:756 JLINK_WriteReg(R3, 0x00000000)  returns 0x00 (0000ms, 0310ms total)
T2DCC 000:756 JLINK_WriteReg(R4, 0x00000000)  returns 0x00 (0000ms, 0310ms total)
T2DCC 000:756 JLINK_WriteReg(R5, 0x00000000)  returns 0x00 (0000ms, 0310ms total)
T2DCC 000:756 JLINK_WriteReg(R6, 0x00000000)  returns 0x00 (0000ms, 0310ms total)
T2DCC 000:756 JLINK_WriteReg(R7, 0x00000000)  returns 0x00 (0000ms, 0310ms total)
T2DCC 000:756 JLINK_WriteReg(R8, 0x00000000)  returns 0x00 (0000ms, 0310ms total)
T2DCC 000:756 JLINK_WriteReg(R9, 0x20000184)  returns 0x00 (0000ms, 0310ms total)
T2DCC 000:756 JLINK_WriteReg(R10, 0x00000000)  returns 0x00 (0000ms, 0310ms total)
T2DCC 000:756 JLINK_WriteReg(R11, 0x00000000)  returns 0x00 (0000ms, 0310ms total)
T2DCC 000:756 JLINK_WriteReg(R12, 0x00000000)  returns 0x00 (0000ms, 0310ms total)
T2DCC 000:756 JLINK_WriteReg(R13 (SP), 0x20001000)  returns 0x00 (0000ms, 0310ms total)
T2DCC 000:756 JLINK_WriteReg(R14, 0x20000001)  returns 0x00 (0000ms, 0310ms total)
T2DCC 000:756 JLINK_WriteReg(R15 (PC), 0x2000005E)  returns 0x00 (0000ms, 0310ms total)
T2DCC 000:756 JLINK_WriteReg(XPSR, 0x01000000)  returns 0x00 (0000ms, 0310ms total)
T2DCC 000:756 JLINK_WriteReg(MSP, 0x20001000)  returns 0x00 (0000ms, 0310ms total)
T2DCC 000:756 JLINK_WriteReg(PSP, 0x20001000)  returns 0x00 (0000ms, 0310ms total)
T2DCC 000:756 JLINK_WriteReg(CFBP, 0x00000000)  returns 0x00 (0000ms, 0310ms total)
T2DCC 000:756 JLINK_SetBPEx(Addr = 0x20000000, Type = 0xFFFFFFF2) -- CPU_ReadMem(2 bytes @ 0x20000000)  returns 0x00000001 (0000ms, 0310ms total)
T2DCC 000:756 JLINK_Go() -- CPU_WriteMem(2 bytes @ 0x20000000) -- CPU_ReadMem(4 bytes @ 0xE0001000) -- CPU_WriteMem(4 bytes @ 0xE0002008) -- CPU_WriteMem(4 bytes @ 0xE000200C) -- CPU_WriteMem(4 bytes @ 0xE0002010) -- CPU_WriteMem(4 bytes @ 0xE0002014) -- CPU_WriteMem(4 bytes @ 0xE0002018) -- CPU_WriteMem(4 bytes @ 0xE000201C) -- CPU_WriteMem(4 bytes @ 0xE0001004) (0004ms, 0314ms total)
T2DCC 000:760 JLINK_IsHalted() -- CPU_ReadMem(2 bytes @ 0x20000000)  returns TRUE (0004ms, 0318ms total)
T2DCC 000:764 JLINK_ReadReg(R15 (PC))  returns 0x20000000 (0000ms, 0314ms total)
T2DCC 000:764 JLINK_ClrBPEx(BPHandle = 0x00000001)  returns 0x00 (0000ms, 0314ms total)
T2DCC 000:764 JLINK_ReadReg(R0)  returns 0x00000000 (0000ms, 0314ms total)
T2DCC 000:765 JLINK_WriteReg(R0, 0x08000000)  returns 0x00 (0000ms, 0314ms total)
T2DCC 000:765 JLINK_WriteReg(R1, 0x00004000)  returns 0x00 (0000ms, 0314ms total)
T2DCC 000:765 JLINK_WriteReg(R2, 0x000000FF)  returns 0x00 (0000ms, 0314ms total)
T2DCC 000:765 JLINK_WriteReg(R3, 0x00000000)  returns 0x00 (0000ms, 0314ms total)
T2DCC 000:765 JLINK_WriteReg(R4, 0x00000000)  returns 0x00 (0000ms, 0314ms total)
T2DCC 000:765 JLINK_WriteReg(R5, 0x00000000)  returns 0x00 (0000ms, 0314ms total)
T2DCC 000:765 JLINK_WriteReg(R6, 0x00000000)  returns 0x00 (0000ms, 0314ms total)
T2DCC 000:765 JLINK_WriteReg(R7, 0x00000000)  returns 0x00 (0000ms, 0314ms total)
T2DCC 000:765 JLINK_WriteReg(R8, 0x00000000)  returns 0x00 (0000ms, 0314ms total)
T2DCC 000:765 JLINK_WriteReg(R9, 0x20000184)  returns 0x00 (0000ms, 0314ms total)
T2DCC 000:765 JLINK_WriteReg(R10, 0x00000000)  returns 0x00 (0000ms, 0314ms total)
T2DCC 000:765 JLINK_WriteReg(R11, 0x00000000)  returns 0x00 (0000ms, 0314ms total)
T2DCC 000:765 JLINK_WriteReg(R12, 0x00000000)  returns 0x00 (0000ms, 0314ms total)
T2DCC 000:765 JLINK_WriteReg(R13 (SP), 0x20001000)  returns 0x00 (0000ms, 0314ms total)
T2DCC 000:765 JLINK_WriteReg(R14, 0x20000001)  returns 0x00 (0000ms, 0314ms total)
T2DCC 000:765 JLINK_WriteReg(R15 (PC), 0x20000020)  returns 0x00 (0000ms, 0314ms total)
T2DCC 000:765 JLINK_WriteReg(XPSR, 0x01000000)  returns 0x00 (0000ms, 0314ms total)
T2DCC 000:765 JLINK_WriteReg(MSP, 0x20001000)  returns 0x00 (0000ms, 0314ms total)
T2DCC 000:765 JLINK_WriteReg(PSP, 0x20001000)  returns 0x00 (0000ms, 0314ms total)
T2DCC 000:765 JLINK_WriteReg(CFBP, 0x00000000)  returns 0x00 (0000ms, 0314ms total)
T2DCC 000:765 JLINK_SetBPEx(Addr = 0x20000000, Type = 0xFFFFFFF2)  returns 0x00000002 (0000ms, 0314ms total)
T2DCC 000:765 JLINK_Go() -- CPU_ReadMem(4 bytes @ 0xE0001000) (0002ms, 0316ms total)
T2DCC 000:767 JLINK_IsHalted()  returns FALSE (0000ms, 0316ms total)
T2DCC 000:797 JLINK_IsHalted() -- CPU_ReadMem(2 bytes @ 0x20000000)  returns TRUE (0003ms, 0319ms total)
T2DCC 000:800 JLINK_ReadReg(R15 (PC))  returns 0x20000000 (0000ms, 0316ms total)
T2DCC 000:800 JLINK_ClrBPEx(BPHandle = 0x00000002)  returns 0x00 (0000ms, 0316ms total)
T2DCC 000:800 JLINK_ReadReg(R0)  returns 0x00000000 (0000ms, 0316ms total)
T2DCC 000:801 JLINK_WriteReg(R0, 0x08004000)  returns 0x00 (0000ms, 0316ms total)
T2DCC 000:801 JLINK_WriteReg(R1, 0x00004000)  returns 0x00 (0000ms, 0316ms total)
T2DCC 000:801 JLINK_WriteReg(R2, 0x000000FF)  returns 0x00 (0000ms, 0316ms total)
T2DCC 000:801 JLINK_WriteReg(R3, 0x00000000)  returns 0x00 (0000ms, 0316ms total)
T2DCC 000:801 JLINK_WriteReg(R4, 0x00000000)  returns 0x00 (0000ms, 0316ms total)
T2DCC 000:801 JLINK_WriteReg(R5, 0x00000000)  returns 0x00 (0000ms, 0316ms total)
T2DCC 000:801 JLINK_WriteReg(R6, 0x00000000)  returns 0x00 (0000ms, 0316ms total)
T2DCC 000:801 JLINK_WriteReg(R7, 0x00000000)  returns 0x00 (0000ms, 0316ms total)
T2DCC 000:801 JLINK_WriteReg(R8, 0x00000000)  returns 0x00 (0000ms, 0316ms total)
T2DCC 000:801 JLINK_WriteReg(R9, 0x20000184)  returns 0x00 (0000ms, 0316ms total)
T2DCC 000:801 JLINK_WriteReg(R10, 0x00000000)  returns 0x00 (0000ms, 0316ms total)
T2DCC 000:801 JLINK_WriteReg(R11, 0x00000000)  returns 0x00 (0000ms, 0316ms total)
T2DCC 000:801 JLINK_WriteReg(R12, 0x00000000)  returns 0x00 (0000ms, 0316ms total)
T2DCC 000:801 JLINK_WriteReg(R13 (SP), 0x20001000)  returns 0x00 (0000ms, 0316ms total)
T2DCC 000:801 JLINK_WriteReg(R14, 0x20000001)  returns 0x00 (0000ms, 0316ms total)
T2DCC 000:801 JLINK_WriteReg(R15 (PC), 0x20000020)  returns 0x00 (0000ms, 0316ms total)
T2DCC 000:801 JLINK_WriteReg(XPSR, 0x01000000)  returns 0x00 (0000ms, 0316ms total)
T2DCC 000:801 JLINK_WriteReg(MSP, 0x20001000)  returns 0x00 (0000ms, 0316ms total)
T2DCC 000:801 JLINK_WriteReg(PSP, 0x20001000)  returns 0x00 (0000ms, 0316ms total)
T2DCC 000:801 JLINK_WriteReg(CFBP, 0x00000000)  returns 0x00 (0000ms, 0316ms total)
T2DCC 000:801 JLINK_SetBPEx(Addr = 0x20000000, Type = 0xFFFFFFF2)  returns 0x00000003 (0000ms, 0316ms total)
T2DCC 000:801 JLINK_Go() -- CPU_ReadMem(4 bytes @ 0xE0001000) (0002ms, 0318ms total)
T2DCC 000:803 JLINK_IsHalted()  returns FALSE (0001ms, 0319ms total)
T2DCC 000:806 JLINK_IsHalted()  returns FALSE (0000ms, 0318ms total)
T2DCC 000:809 JLINK_IsHalted()  returns FALSE (0000ms, 0318ms total)
T2DCC 000:811 JLINK_IsHalted()  returns FALSE (0000ms, 0318ms total)
T2DCC 000:813 JLINK_IsHalted()  returns FALSE (0000ms, 0318ms total)
T2DCC 000:815 JLINK_IsHalted()  returns FALSE (0000ms, 0318ms total)
T2DCC 000:817 JLINK_IsHalted()  returns FALSE (0000ms, 0318ms total)
T2DCC 000:819 JLINK_IsHalted() -- CPU_ReadMem(2 bytes @ 0x20000000)  returns TRUE (0004ms, 0322ms total)
T2DCC 000:823 JLINK_ReadReg(R15 (PC))  returns 0x20000000 (0000ms, 0318ms total)
T2DCC 000:823 JLINK_ClrBPEx(BPHandle = 0x00000003)  returns 0x00 (0000ms, 0318ms total)
T2DCC 000:823 JLINK_ReadReg(R0)  returns 0x00000000 (0000ms, 0318ms total)
T2DCC 000:823 JLINK_WriteReg(R0, 0x08008000)  returns 0x00 (0000ms, 0318ms total)
T2DCC 000:823 JLINK_WriteReg(R1, 0x00004000)  returns 0x00 (0000ms, 0318ms total)
T2DCC 000:823 JLINK_WriteReg(R2, 0x000000FF)  returns 0x00 (0000ms, 0318ms total)
T2DCC 000:823 JLINK_WriteReg(R3, 0x00000000)  returns 0x00 (0000ms, 0318ms total)
T2DCC 000:823 JLINK_WriteReg(R4, 0x00000000)  returns 0x00 (0000ms, 0318ms total)
T2DCC 000:823 JLINK_WriteReg(R5, 0x00000000)  returns 0x00 (0000ms, 0318ms total)
T2DCC 000:823 JLINK_WriteReg(R6, 0x00000000)  returns 0x00 (0000ms, 0318ms total)
T2DCC 000:823 JLINK_WriteReg(R7, 0x00000000)  returns 0x00 (0000ms, 0318ms total)
T2DCC 000:823 JLINK_WriteReg(R8, 0x00000000)  returns 0x00 (0000ms, 0318ms total)
T2DCC 000:823 JLINK_WriteReg(R9, 0x20000184)  returns 0x00 (0000ms, 0318ms total)
T2DCC 000:823 JLINK_WriteReg(R10, 0x00000000)  returns 0x00 (0000ms, 0318ms total)
T2DCC 000:823 JLINK_WriteReg(R11, 0x00000000)  returns 0x00 (0000ms, 0318ms total)
T2DCC 000:823 JLINK_WriteReg(R12, 0x00000000)  returns 0x00 (0000ms, 0318ms total)
T2DCC 000:823 JLINK_WriteReg(R13 (SP), 0x20001000)  returns 0x00 (0000ms, 0318ms total)
T2DCC 000:823 JLINK_WriteReg(R14, 0x20000001)  returns 0x00 (0000ms, 0318ms total)
T2DCC 000:823 JLINK_WriteReg(R15 (PC), 0x20000020)  returns 0x00 (0001ms, 0319ms total)
T2DCC 000:824 JLINK_WriteReg(XPSR, 0x01000000)  returns 0x00 (0000ms, 0319ms total)
T2DCC 000:824 JLINK_WriteReg(MSP, 0x20001000)  returns 0x00 (0000ms, 0319ms total)
T2DCC 000:824 JLINK_WriteReg(PSP, 0x20001000)  returns 0x00 (0000ms, 0319ms total)
T2DCC 000:824 JLINK_WriteReg(CFBP, 0x00000000)  returns 0x00 (0000ms, 0319ms total)
T2DCC 000:824 JLINK_SetBPEx(Addr = 0x20000000, Type = 0xFFFFFFF2)  returns 0x00000004 (0000ms, 0319ms total)
T2DCC 000:824 JLINK_Go() -- CPU_ReadMem(4 bytes @ 0xE0001000) (0001ms, 0320ms total)
T2DCC 000:825 JLINK_IsHalted()  returns FALSE (0001ms, 0321ms total)
T2DCC 000:828 JLINK_IsHalted()  returns FALSE (0000ms, 0320ms total)
T2DCC 000:830 JLINK_IsHalted()  returns FALSE (0000ms, 0320ms total)
T2DCC 000:832 JLINK_IsHalted()  returns FALSE (0000ms, 0320ms total)
T2DCC 000:834 JLINK_IsHalted()  returns FALSE (0000ms, 0320ms total)
T2DCC 000:836 JLINK_IsHalted()  returns FALSE (0000ms, 0320ms total)
T2DCC 000:838 JLINK_IsHalted()  returns FALSE (0000ms, 0320ms total)
T2DCC 000:840 JLINK_IsHalted() -- CPU_ReadMem(2 bytes @ 0x20000000)  returns TRUE (0003ms, 0323ms total)
T2DCC 000:843 JLINK_ReadReg(R15 (PC))  returns 0x20000000 (0000ms, 0320ms total)
T2DCC 000:843 JLINK_ClrBPEx(BPHandle = 0x00000004)  returns 0x00 (0000ms, 0320ms total)
T2DCC 000:843 JLINK_ReadReg(R0)  returns 0x00000000 (0000ms, 0320ms total)
T2DCC 000:844 JLINK_WriteReg(R0, 0x0800C000)  returns 0x00 (0000ms, 0320ms total)
T2DCC 000:844 JLINK_WriteReg(R1, 0x00004000)  returns 0x00 (0000ms, 0320ms total)
T2DCC 000:844 JLINK_WriteReg(R2, 0x000000FF)  returns 0x00 (0000ms, 0320ms total)
T2DCC 000:844 JLINK_WriteReg(R3, 0x00000000)  returns 0x00 (0000ms, 0320ms total)
T2DCC 000:844 JLINK_WriteReg(R4, 0x00000000)  returns 0x00 (0000ms, 0320ms total)
T2DCC 000:844 JLINK_WriteReg(R5, 0x00000000)  returns 0x00 (0000ms, 0320ms total)
T2DCC 000:844 JLINK_WriteReg(R6, 0x00000000)  returns 0x00 (0000ms, 0320ms total)
T2DCC 000:844 JLINK_WriteReg(R7, 0x00000000)  returns 0x00 (0000ms, 0320ms total)
T2DCC 000:844 JLINK_WriteReg(R8, 0x00000000)  returns 0x00 (0000ms, 0320ms total)
T2DCC 000:844 JLINK_WriteReg(R9, 0x20000184)  returns 0x00 (0000ms, 0320ms total)
T2DCC 000:844 JLINK_WriteReg(R10, 0x00000000)  returns 0x00 (0000ms, 0320ms total)
T2DCC 000:844 JLINK_WriteReg(R11, 0x00000000)  returns 0x00 (0000ms, 0320ms total)
T2DCC 000:844 JLINK_WriteReg(R12, 0x00000000)  returns 0x00 (0000ms, 0320ms total)
T2DCC 000:844 JLINK_WriteReg(R13 (SP), 0x20001000)  returns 0x00 (0000ms, 0320ms total)
T2DCC 000:844 JLINK_WriteReg(R14, 0x20000001)  returns 0x00 (0000ms, 0320ms total)
T2DCC 000:844 JLINK_WriteReg(R15 (PC), 0x20000020)  returns 0x00 (0000ms, 0320ms total)
T2DCC 000:844 JLINK_WriteReg(XPSR, 0x01000000)  returns 0x00 (0000ms, 0320ms total)
T2DCC 000:844 JLINK_WriteReg(MSP, 0x20001000)  returns 0x00 (0000ms, 0320ms total)
T2DCC 000:844 JLINK_WriteReg(PSP, 0x20001000)  returns 0x00 (0000ms, 0320ms total)
T2DCC 000:844 JLINK_WriteReg(CFBP, 0x00000000)  returns 0x00 (0000ms, 0320ms total)
T2DCC 000:844 JLINK_SetBPEx(Addr = 0x20000000, Type = 0xFFFFFFF2)  returns 0x00000005 (0000ms, 0320ms total)
T2DCC 000:844 JLINK_Go() -- CPU_ReadMem(4 bytes @ 0xE0001000) (0002ms, 0322ms total)
T2DCC 000:846 JLINK_IsHalted()  returns FALSE (0000ms, 0322ms total)
T2DCC 000:848 JLINK_IsHalted()  returns FALSE (0000ms, 0322ms total)
T2DCC 000:850 JLINK_IsHalted()  returns FALSE (0000ms, 0322ms total)
T2DCC 000:852 JLINK_IsHalted()  returns FALSE (0000ms, 0322ms total)
T2DCC 000:854 JLINK_IsHalted()  returns FALSE (0000ms, 0322ms total)
T2DCC 000:856 JLINK_IsHalted()  returns FALSE (0000ms, 0322ms total)
T2DCC 000:858 JLINK_IsHalted()  returns FALSE (0000ms, 0322ms total)
T2DCC 000:860 JLINK_IsHalted()  returns FALSE (0000ms, 0322ms total)
T2DCC 000:862 JLINK_IsHalted() -- CPU_ReadMem(2 bytes @ 0x20000000)  returns TRUE (0003ms, 0325ms total)
T2DCC 000:866 JLINK_ReadReg(R15 (PC))  returns 0x20000000 (0000ms, 0322ms total)
T2DCC 000:866 JLINK_ClrBPEx(BPHandle = 0x00000005)  returns 0x00 (0000ms, 0322ms total)
T2DCC 000:866 JLINK_ReadReg(R0)  returns 0x00000000 (0000ms, 0322ms total)
T2DCC 000:866 JLINK_WriteReg(R0, 0x00000001)  returns 0x00 (0000ms, 0322ms total)
T2DCC 000:866 JLINK_WriteReg(R1, 0x00004000)  returns 0x00 (0000ms, 0322ms total)
T2DCC 000:866 JLINK_WriteReg(R2, 0x000000FF)  returns 0x00 (0000ms, 0322ms total)
T2DCC 000:866 JLINK_WriteReg(R3, 0x00000000)  returns 0x00 (0000ms, 0322ms total)
T2DCC 000:866 JLINK_WriteReg(R4, 0x00000000)  returns 0x00 (0000ms, 0322ms total)
T2DCC 000:866 JLINK_WriteReg(R5, 0x00000000)  returns 0x00 (0000ms, 0322ms total)
T2DCC 000:866 JLINK_WriteReg(R6, 0x00000000)  returns 0x00 (0000ms, 0322ms total)
T2DCC 000:866 JLINK_WriteReg(R7, 0x00000000)  returns 0x00 (0000ms, 0322ms total)
T2DCC 000:866 JLINK_WriteReg(R8, 0x00000000)  returns 0x00 (0000ms, 0322ms total)
T2DCC 000:866 JLINK_WriteReg(R9, 0x20000184)  returns 0x00 (0000ms, 0322ms total)
T2DCC 000:866 JLINK_WriteReg(R10, 0x00000000)  returns 0x00 (0000ms, 0322ms total)
T2DCC 000:866 JLINK_WriteReg(R11, 0x00000000)  returns 0x00 (0000ms, 0322ms total)
T2DCC 000:866 JLINK_WriteReg(R12, 0x00000000)  returns 0x00 (0000ms, 0322ms total)
T2DCC 000:866 JLINK_WriteReg(R13 (SP), 0x20001000)  returns 0x00 (0000ms, 0322ms total)
T2DCC 000:866 JLINK_WriteReg(R14, 0x20000001)  returns 0x00 (0000ms, 0322ms total)
T2DCC 000:866 JLINK_WriteReg(R15 (PC), 0x2000008C)  returns 0x00 (0000ms, 0322ms total)
T2DCC 000:866 JLINK_WriteReg(XPSR, 0x01000000)  returns 0x00 (0000ms, 0322ms total)
T2DCC 000:866 JLINK_WriteReg(MSP, 0x20001000)  returns 0x00 (0000ms, 0322ms total)
T2DCC 000:866 JLINK_WriteReg(PSP, 0x20001000)  returns 0x00 (0000ms, 0322ms total)
T2DCC 000:866 JLINK_WriteReg(CFBP, 0x00000000)  returns 0x00 (0000ms, 0322ms total)
T2DCC 000:866 JLINK_SetBPEx(Addr = 0x20000000, Type = 0xFFFFFFF2)  returns 0x00000006 (0000ms, 0322ms total)
T2DCC 000:866 JLINK_Go() -- CPU_ReadMem(4 bytes @ 0xE0001000) (0002ms, 0324ms total)
T2DCC 000:868 JLINK_IsHalted() -- CPU_ReadMem(2 bytes @ 0x20000000)  returns TRUE (0004ms, 0328ms total)
T2DCC 000:872 JLINK_ReadReg(R15 (PC))  returns 0x20000000 (0000ms, 0324ms total)
T2DCC 000:872 JLINK_ClrBPEx(BPHandle = 0x00000006)  returns 0x00 (0000ms, 0324ms total)
T2DCC 000:872 JLINK_ReadReg(R0)  returns 0x00000000 (0000ms, 0324ms total)
T2DCC 000:928 JLINK_WriteMem(0x20000000, 0x0188 Bytes, ...) - Data: 00 BE 0A E0 0D 78 2D 06 68 40 08 24 40 00 00 D3 ... -- CPU_WriteMem(392 bytes @ 0x20000000)  returns 0x188 (0004ms, 0328ms total)
T2DCC 000:932 JLINK_WriteReg(R0, 0x08000000)  returns 0x00 (0000ms, 0328ms total)
T2DCC 000:932 JLINK_WriteReg(R1, 0x0A037A00)  returns 0x00 (0000ms, 0328ms total)
T2DCC 000:932 JLINK_WriteReg(R2, 0x00000002)  returns 0x00 (0000ms, 0328ms total)
T2DCC 000:932 JLINK_WriteReg(R3, 0x00000000)  returns 0x00 (0000ms, 0328ms total)
T2DCC 000:932 JLINK_WriteReg(R4, 0x00000000)  returns 0x00 (0000ms, 0328ms total)
T2DCC 000:932 JLINK_WriteReg(R5, 0x00000000)  returns 0x00 (0000ms, 0328ms total)
T2DCC 000:932 JLINK_WriteReg(R6, 0x00000000)  returns 0x00 (0000ms, 0328ms total)
T2DCC 000:932 JLINK_WriteReg(R7, 0x00000000)  returns 0x00 (0000ms, 0328ms total)
T2DCC 000:932 JLINK_WriteReg(R8, 0x00000000)  returns 0x00 (0000ms, 0328ms total)
T2DCC 000:932 JLINK_WriteReg(R9, 0x20000184)  returns 0x00 (0000ms, 0328ms total)
T2DCC 000:932 JLINK_WriteReg(R10, 0x00000000)  returns 0x00 (0000ms, 0328ms total)
T2DCC 000:932 JLINK_WriteReg(R11, 0x00000000)  returns 0x00 (0000ms, 0328ms total)
T2DCC 000:932 JLINK_WriteReg(R12, 0x00000000)  returns 0x00 (0000ms, 0328ms total)
T2DCC 000:932 JLINK_WriteReg(R13 (SP), 0x20001000)  returns 0x00 (0000ms, 0328ms total)
T2DCC 000:932 JLINK_WriteReg(R14, 0x20000001)  returns 0x00 (0000ms, 0328ms total)
T2DCC 000:932 JLINK_WriteReg(R15 (PC), 0x2000005E)  returns 0x00 (0000ms, 0328ms total)
T2DCC 000:932 JLINK_WriteReg(XPSR, 0x01000000)  returns 0x00 (0000ms, 0328ms total)
T2DCC 000:932 JLINK_WriteReg(MSP, 0x20001000)  returns 0x00 (0000ms, 0328ms total)
T2DCC 000:932 JLINK_WriteReg(PSP, 0x20001000)  returns 0x00 (0000ms, 0328ms total)
T2DCC 000:932 JLINK_WriteReg(CFBP, 0x00000000)  returns 0x00 (0000ms, 0328ms total)
T2DCC 000:932 JLINK_SetBPEx(Addr = 0x20000000, Type = 0xFFFFFFF2) -- CPU_ReadMem(2 bytes @ 0x20000000)  returns 0x00000007 (0001ms, 0329ms total)
T2DCC 000:933 JLINK_Go() -- CPU_WriteMem(2 bytes @ 0x20000000) -- CPU_ReadMem(4 bytes @ 0xE0001000) (0002ms, 0331ms total)
T2DCC 000:935 JLINK_IsHalted() -- CPU_ReadMem(2 bytes @ 0x20000000)  returns TRUE (0004ms, 0335ms total)
T2DCC 000:939 JLINK_ReadReg(R15 (PC))  returns 0x20000000 (0000ms, 0331ms total)
T2DCC 000:939 JLINK_ClrBPEx(BPHandle = 0x00000007)  returns 0x00 (0000ms, 0331ms total)
T2DCC 000:939 JLINK_ReadReg(R0)  returns 0x00000000 (0000ms, 0331ms total)
T2DCC 000:939 JLINK_WriteMem(0x20000188, 0x0278 Bytes, ...) - Data: A0 C5 00 20 9D 01 00 08 FD 59 00 08 F9 52 00 08 ... -- CPU_WriteMem(632 bytes @ 0x20000188)  returns 0x278 (0006ms, 0337ms total)
T2DCC 000:945 JLINK_WriteMem(0x20000400, 0x0188 Bytes, ...) - Data: 0D D4 01 F8 01 3B FA E7 10 F8 01 3B CB 1A 92 1C ... -- CPU_WriteMem(392 bytes @ 0x20000400)  returns 0x188 (0003ms, 0340ms total)
T2DCC 000:948 JLINK_WriteReg(R0, 0x08000000)  returns 0x00 (0000ms, 0340ms total)
T2DCC 000:948 JLINK_WriteReg(R1, 0x00000400)  returns 0x00 (0000ms, 0340ms total)
T2DCC 000:948 JLINK_WriteReg(R2, 0x20000188)  returns 0x00 (0000ms, 0340ms total)
T2DCC 000:948 JLINK_WriteReg(R3, 0x00000000)  returns 0x00 (0000ms, 0340ms total)
T2DCC 000:948 JLINK_WriteReg(R4, 0x00000000)  returns 0x00 (0000ms, 0340ms total)
T2DCC 000:948 JLINK_WriteReg(R5, 0x00000000)  returns 0x00 (0000ms, 0340ms total)
T2DCC 000:948 JLINK_WriteReg(R6, 0x00000000)  returns 0x00 (0000ms, 0340ms total)
T2DCC 000:948 JLINK_WriteReg(R7, 0x00000000)  returns 0x00 (0000ms, 0340ms total)
T2DCC 000:948 JLINK_WriteReg(R8, 0x00000000)  returns 0x00 (0000ms, 0340ms total)
T2DCC 000:948 JLINK_WriteReg(R9, 0x20000184)  returns 0x00 (0000ms, 0340ms total)
T2DCC 000:948 JLINK_WriteReg(R10, 0x00000000)  returns 0x00 (0000ms, 0340ms total)
T2DCC 000:948 JLINK_WriteReg(R11, 0x00000000)  returns 0x00 (0000ms, 0340ms total)
T2DCC 000:948 JLINK_WriteReg(R12, 0x00000000)  returns 0x00 (0000ms, 0340ms total)
T2DCC 000:948 JLINK_WriteReg(R13 (SP), 0x20001000)  returns 0x00 (0000ms, 0340ms total)
T2DCC 000:948 JLINK_WriteReg(R14, 0x20000001)  returns 0x00 (0000ms, 0340ms total)
T2DCC 000:948 JLINK_WriteReg(R15 (PC), 0x20000112)  returns 0x00 (0000ms, 0340ms total)
T2DCC 000:948 JLINK_WriteReg(XPSR, 0x01000000)  returns 0x00 (0000ms, 0340ms total)
T2DCC 000:948 JLINK_WriteReg(MSP, 0x20001000)  returns 0x00 (0000ms, 0340ms total)
T2DCC 000:948 JLINK_WriteReg(PSP, 0x20001000)  returns 0x00 (0000ms, 0340ms total)
T2DCC 000:948 JLINK_WriteReg(CFBP, 0x00000000)  returns 0x00 (0000ms, 0340ms total)
T2DCC 000:948 JLINK_SetBPEx(Addr = 0x20000000, Type = 0xFFFFFFF2)  returns 0x00000008 (0000ms, 0340ms total)
T2DCC 000:948 JLINK_Go() -- CPU_ReadMem(4 bytes @ 0xE0001000) (0003ms, 0343ms total)
T2DCC 000:951 JLINK_IsHalted()  returns FALSE (0001ms, 0344ms total)
T2DCC 000:961 JLINK_IsHalted() -- CPU_ReadMem(2 bytes @ 0x20000000)  returns TRUE (0004ms, 0347ms total)
T2DCC 000:965 JLINK_ReadReg(R15 (PC))  returns 0x20000000 (0000ms, 0343ms total)
T2DCC 000:965 JLINK_ClrBPEx(BPHandle = 0x00000008)  returns 0x00 (0000ms, 0343ms total)
T2DCC 000:965 JLINK_ReadReg(R0)  returns 0x00000000 (0000ms, 0343ms total)
T2DCC 000:966 JLINK_WriteMem(0x20000188, 0x0278 Bytes, ...) - Data: 9D F8 00 00 00 F0 01 00 00 28 F3 D1 01 22 D1 03 ... -- CPU_WriteMem(632 bytes @ 0x20000188)  returns 0x278 (0005ms, 0348ms total)
T2DCC 000:971 JLINK_WriteMem(0x20000400, 0x0188 Bytes, ...) - Data: 88 60 25 98 21 68 C8 60 20 68 85 69 4F F6 41 70 ... -- CPU_WriteMem(392 bytes @ 0x20000400)  returns 0x188 (0003ms, 0351ms total)
T2DCC 000:974 JLINK_WriteReg(R0, 0x08000400)  returns 0x00 (0000ms, 0351ms total)
T2DCC 000:974 JLINK_WriteReg(R1, 0x00000400)  returns 0x00 (0000ms, 0351ms total)
T2DCC 000:974 JLINK_WriteReg(R2, 0x20000188)  returns 0x00 (0000ms, 0351ms total)
T2DCC 000:974 JLINK_WriteReg(R3, 0x00000000)  returns 0x00 (0000ms, 0351ms total)
T2DCC 000:974 JLINK_WriteReg(R4, 0x00000000)  returns 0x00 (0000ms, 0351ms total)
T2DCC 000:974 JLINK_WriteReg(R5, 0x00000000)  returns 0x00 (0000ms, 0351ms total)
T2DCC 000:974 JLINK_WriteReg(R6, 0x00000000)  returns 0x00 (0000ms, 0351ms total)
T2DCC 000:974 JLINK_WriteReg(R7, 0x00000000)  returns 0x00 (0000ms, 0351ms total)
T2DCC 000:974 JLINK_WriteReg(R8, 0x00000000)  returns 0x00 (0000ms, 0351ms total)
T2DCC 000:974 JLINK_WriteReg(R9, 0x20000184)  returns 0x00 (0000ms, 0351ms total)
T2DCC 000:974 JLINK_WriteReg(R10, 0x00000000)  returns 0x00 (0000ms, 0351ms total)
T2DCC 000:974 JLINK_WriteReg(R11, 0x00000000)  returns 0x00 (0000ms, 0351ms total)
T2DCC 000:974 JLINK_WriteReg(R12, 0x00000000)  returns 0x00 (0000ms, 0351ms total)
T2DCC 000:974 JLINK_WriteReg(R13 (SP), 0x20001000)  returns 0x00 (0000ms, 0351ms total)
T2DCC 000:974 JLINK_WriteReg(R14, 0x20000001)  returns 0x00 (0000ms, 0351ms total)
T2DCC 000:974 JLINK_WriteReg(R15 (PC), 0x20000112)  returns 0x00 (0000ms, 0351ms total)
T2DCC 000:974 JLINK_WriteReg(XPSR, 0x01000000)  returns 0x00 (0000ms, 0351ms total)
T2DCC 000:974 JLINK_WriteReg(MSP, 0x20001000)  returns 0x00 (0000ms, 0351ms total)
T2DCC 000:974 JLINK_WriteReg(PSP, 0x20001000)  returns 0x00 (0000ms, 0351ms total)
T2DCC 000:974 JLINK_WriteReg(CFBP, 0x00000000)  returns 0x00 (0000ms, 0351ms total)
T2DCC 000:974 JLINK_SetBPEx(Addr = 0x20000000, Type = 0xFFFFFFF2)  returns 0x00000009 (0000ms, 0351ms total)
T2DCC 000:974 JLINK_Go() -- CPU_ReadMem(4 bytes @ 0xE0001000) (0002ms, 0353ms total)
T2DCC 000:976 JLINK_IsHalted()  returns FALSE (0002ms, 0355ms total)
T2DCC 000:979 JLINK_IsHalted()  returns FALSE (0000ms, 0353ms total)
T2DCC 000:981 JLINK_IsHalted() -- CPU_ReadMem(2 bytes @ 0x20000000)  returns TRUE (0004ms, 0357ms total)
T2DCC 000:985 JLINK_ReadReg(R15 (PC))  returns 0x20000000 (0000ms, 0353ms total)
T2DCC 000:985 JLINK_ClrBPEx(BPHandle = 0x00000009)  returns 0x00 (0001ms, 0354ms total)
T2DCC 000:986 JLINK_ReadReg(R0)  returns 0x00000000 (0000ms, 0354ms total)
T2DCC 000:987 JLINK_WriteMem(0x20000188, 0x0278 Bytes, ...) - Data: 40 F0 08 00 21 68 08 60 20 68 00 68 00 90 01 20 ... -- CPU_WriteMem(632 bytes @ 0x20000188)  returns 0x278 (0006ms, 0360ms total)
T2DCC 000:993 JLINK_WriteMem(0x20000400, 0x0188 Bytes, ...) - Data: 81 F8 35 00 08 68 00 68 20 F0 01 00 0A 68 10 60 ... -- CPU_WriteMem(392 bytes @ 0x20000400)  returns 0x188 (0004ms, 0364ms total)
T2DCC 000:997 JLINK_WriteReg(R0, 0x08000800)  returns 0x00 (0000ms, 0364ms total)
T2DCC 000:997 JLINK_WriteReg(R1, 0x00000400)  returns 0x00 (0000ms, 0364ms total)
T2DCC 000:997 JLINK_WriteReg(R2, 0x20000188)  returns 0x00 (0000ms, 0364ms total)
T2DCC 000:997 JLINK_WriteReg(R3, 0x00000000)  returns 0x00 (0000ms, 0364ms total)
T2DCC 000:997 JLINK_WriteReg(R4, 0x00000000)  returns 0x00 (0000ms, 0364ms total)
T2DCC 000:997 JLINK_WriteReg(R5, 0x00000000)  returns 0x00 (0000ms, 0364ms total)
T2DCC 000:997 JLINK_WriteReg(R6, 0x00000000)  returns 0x00 (0000ms, 0364ms total)
T2DCC 000:997 JLINK_WriteReg(R7, 0x00000000)  returns 0x00 (0000ms, 0364ms total)
T2DCC 000:997 JLINK_WriteReg(R8, 0x00000000)  returns 0x00 (0000ms, 0364ms total)
T2DCC 000:997 JLINK_WriteReg(R9, 0x20000184)  returns 0x00 (0000ms, 0364ms total)
T2DCC 000:997 JLINK_WriteReg(R10, 0x00000000)  returns 0x00 (0000ms, 0364ms total)
T2DCC 000:997 JLINK_WriteReg(R11, 0x00000000)  returns 0x00 (0000ms, 0364ms total)
T2DCC 000:997 JLINK_WriteReg(R12, 0x00000000)  returns 0x00 (0000ms, 0364ms total)
T2DCC 000:997 JLINK_WriteReg(R13 (SP), 0x20001000)  returns 0x00 (0000ms, 0364ms total)
T2DCC 000:997 JLINK_WriteReg(R14, 0x20000001)  returns 0x00 (0000ms, 0364ms total)
T2DCC 000:997 JLINK_WriteReg(R15 (PC), 0x20000112)  returns 0x00 (0000ms, 0364ms total)
T2DCC 000:997 JLINK_WriteReg(XPSR, 0x01000000)  returns 0x00 (0000ms, 0364ms total)
T2DCC 000:997 JLINK_WriteReg(MSP, 0x20001000)  returns 0x00 (0000ms, 0364ms total)
T2DCC 000:997 JLINK_WriteReg(PSP, 0x20001000)  returns 0x00 (0000ms, 0364ms total)
T2DCC 000:997 JLINK_WriteReg(CFBP, 0x00000000)  returns 0x00 (0000ms, 0364ms total)
T2DCC 000:997 JLINK_SetBPEx(Addr = 0x20000000, Type = 0xFFFFFFF2)  returns 0x0000000A (0001ms, 0365ms total)
T2DCC 000:998 JLINK_Go() -- CPU_ReadMem(4 bytes @ 0xE0001000) (0002ms, 0367ms total)
T2DCC 001:001 JLINK_IsHalted()  returns FALSE (0000ms, 0367ms total)
T2DCC 001:003 JLINK_IsHalted()  returns FALSE (0001ms, 0368ms total)
T2DCC 001:005 JLINK_IsHalted() -- CPU_ReadMem(2 bytes @ 0x20000000)  returns TRUE (0005ms, 0372ms total)
T2DCC 001:010 JLINK_ReadReg(R15 (PC))  returns 0x20000000 (0000ms, 0367ms total)
T2DCC 001:010 JLINK_ClrBPEx(BPHandle = 0x0000000A)  returns 0x00 (0000ms, 0367ms total)
T2DCC 001:010 JLINK_ReadReg(R0)  returns 0x00000000 (0000ms, 0367ms total)
T2DCC 001:011 JLINK_WriteMem(0x20000188, 0x0278 Bytes, ...) - Data: 00 F0 06 FB 01 21 20 68 00 F5 80 50 41 61 01 20 ... -- CPU_WriteMem(632 bytes @ 0x20000188)  returns 0x278 (0005ms, 0372ms total)
T2DCC 001:016 JLINK_WriteMem(0x20000400, 0x0188 Bytes, ...) - Data: E1 60 02 E0 0D E0 00 21 E1 60 01 98 00 F0 02 00 ... -- CPU_WriteMem(392 bytes @ 0x20000400)  returns 0x188 (0004ms, 0376ms total)
T2DCC 001:020 JLINK_WriteReg(R0, 0x08000C00)  returns 0x00 (0000ms, 0376ms total)
T2DCC 001:020 JLINK_WriteReg(R1, 0x00000400)  returns 0x00 (0000ms, 0376ms total)
T2DCC 001:020 JLINK_WriteReg(R2, 0x20000188)  returns 0x00 (0000ms, 0376ms total)
T2DCC 001:020 JLINK_WriteReg(R3, 0x00000000)  returns 0x00 (0000ms, 0376ms total)
T2DCC 001:020 JLINK_WriteReg(R4, 0x00000000)  returns 0x00 (0000ms, 0376ms total)
T2DCC 001:020 JLINK_WriteReg(R5, 0x00000000)  returns 0x00 (0000ms, 0376ms total)
T2DCC 001:020 JLINK_WriteReg(R6, 0x00000000)  returns 0x00 (0000ms, 0376ms total)
T2DCC 001:020 JLINK_WriteReg(R7, 0x00000000)  returns 0x00 (0000ms, 0376ms total)
T2DCC 001:020 JLINK_WriteReg(R8, 0x00000000)  returns 0x00 (0000ms, 0376ms total)
T2DCC 001:020 JLINK_WriteReg(R9, 0x20000184)  returns 0x00 (0000ms, 0376ms total)
T2DCC 001:020 JLINK_WriteReg(R10, 0x00000000)  returns 0x00 (0000ms, 0376ms total)
T2DCC 001:020 JLINK_WriteReg(R11, 0x00000000)  returns 0x00 (0000ms, 0376ms total)
T2DCC 001:020 JLINK_WriteReg(R12, 0x00000000)  returns 0x00 (0000ms, 0376ms total)
T2DCC 001:020 JLINK_WriteReg(R13 (SP), 0x20001000)  returns 0x00 (0000ms, 0376ms total)
T2DCC 001:020 JLINK_WriteReg(R14, 0x20000001)  returns 0x00 (0000ms, 0376ms total)
T2DCC 001:020 JLINK_WriteReg(R15 (PC), 0x20000112)  returns 0x00 (0000ms, 0376ms total)
T2DCC 001:020 JLINK_WriteReg(XPSR, 0x01000000)  returns 0x00 (0000ms, 0376ms total)
T2DCC 001:020 JLINK_WriteReg(MSP, 0x20001000)  returns 0x00 (0000ms, 0376ms total)
T2DCC 001:020 JLINK_WriteReg(PSP, 0x20001000)  returns 0x00 (0000ms, 0376ms total)
T2DCC 001:020 JLINK_WriteReg(CFBP, 0x00000000)  returns 0x00 (0001ms, 0377ms total)
T2DCC 001:021 JLINK_SetBPEx(Addr = 0x20000000, Type = 0xFFFFFFF2)  returns 0x0000000B (0000ms, 0377ms total)
T2DCC 001:021 JLINK_Go() -- CPU_ReadMem(4 bytes @ 0xE0001000) (0003ms, 0380ms total)
T2DCC 001:024 JLINK_IsHalted()  returns FALSE (0000ms, 0380ms total)
T2DCC 001:039 JLINK_IsHalted() -- CPU_ReadMem(2 bytes @ 0x20000000)  returns TRUE (0005ms, 0385ms total)
T2DCC 001:044 JLINK_ReadReg(R15 (PC))  returns 0x20000000 (0000ms, 0380ms total)
T2DCC 001:044 JLINK_ClrBPEx(BPHandle = 0x0000000B)  returns 0x00 (0000ms, 0380ms total)
T2DCC 001:044 JLINK_ReadReg(R0)  returns 0x00000000 (0000ms, 0380ms total)
T2DCC 001:045 JLINK_WriteMem(0x20000188, 0x0278 Bytes, ...) - Data: 02 D1 02 20 BD E8 F0 81 82 20 84 F8 44 00 20 68 ... -- CPU_WriteMem(632 bytes @ 0x20000188)  returns 0x278 (0005ms, 0385ms total)
T2DCC 001:050 JLINK_WriteMem(0x20000400, 0x0188 Bytes, ...) - Data: 01 20 84 F8 44 00 00 BF 00 20 84 F8 45 00 00 BF ... -- CPU_WriteMem(392 bytes @ 0x20000400)  returns 0x188 (0004ms, 0389ms total)
T2DCC 001:054 JLINK_WriteReg(R0, 0x08001000)  returns 0x00 (0000ms, 0389ms total)
T2DCC 001:054 JLINK_WriteReg(R1, 0x00000400)  returns 0x00 (0000ms, 0389ms total)
T2DCC 001:054 JLINK_WriteReg(R2, 0x20000188)  returns 0x00 (0000ms, 0389ms total)
T2DCC 001:054 JLINK_WriteReg(R3, 0x00000000)  returns 0x00 (0000ms, 0389ms total)
T2DCC 001:054 JLINK_WriteReg(R4, 0x00000000)  returns 0x00 (0000ms, 0389ms total)
T2DCC 001:054 JLINK_WriteReg(R5, 0x00000000)  returns 0x00 (0000ms, 0389ms total)
T2DCC 001:054 JLINK_WriteReg(R6, 0x00000000)  returns 0x00 (0000ms, 0389ms total)
T2DCC 001:054 JLINK_WriteReg(R7, 0x00000000)  returns 0x00 (0000ms, 0389ms total)
T2DCC 001:054 JLINK_WriteReg(R8, 0x00000000)  returns 0x00 (0000ms, 0389ms total)
T2DCC 001:054 JLINK_WriteReg(R9, 0x20000184)  returns 0x00 (0000ms, 0389ms total)
T2DCC 001:054 JLINK_WriteReg(R10, 0x00000000)  returns 0x00 (0000ms, 0389ms total)
T2DCC 001:054 JLINK_WriteReg(R11, 0x00000000)  returns 0x00 (0000ms, 0389ms total)
T2DCC 001:054 JLINK_WriteReg(R12, 0x00000000)  returns 0x00 (0000ms, 0389ms total)
T2DCC 001:055 JLINK_WriteReg(R13 (SP), 0x20001000)  returns 0x00 (0000ms, 0390ms total)
T2DCC 001:055 JLINK_WriteReg(R14, 0x20000001)  returns 0x00 (0000ms, 0390ms total)
T2DCC 001:055 JLINK_WriteReg(R15 (PC), 0x20000112)  returns 0x00 (0000ms, 0390ms total)
T2DCC 001:055 JLINK_WriteReg(XPSR, 0x01000000)  returns 0x00 (0000ms, 0390ms total)
T2DCC 001:055 JLINK_WriteReg(MSP, 0x20001000)  returns 0x00 (0000ms, 0390ms total)
T2DCC 001:055 JLINK_WriteReg(PSP, 0x20001000)  returns 0x00 (0000ms, 0390ms total)
T2DCC 001:055 JLINK_WriteReg(CFBP, 0x00000000)  returns 0x00 (0000ms, 0390ms total)
T2DCC 001:055 JLINK_SetBPEx(Addr = 0x20000000, Type = 0xFFFFFFF2)  returns 0x0000000C (0000ms, 0390ms total)
T2DCC 001:055 JLINK_Go() -- CPU_ReadMem(4 bytes @ 0xE0001000) (0002ms, 0392ms total)
T2DCC 001:057 JLINK_IsHalted()  returns FALSE (0001ms, 0393ms total)
T2DCC 001:068 JLINK_IsHalted() -- CPU_ReadMem(2 bytes @ 0x20000000)  returns TRUE (0004ms, 0396ms total)
T2DCC 001:072 JLINK_ReadReg(R15 (PC))  returns 0x20000000 (0000ms, 0392ms total)
T2DCC 001:072 JLINK_ClrBPEx(BPHandle = 0x0000000C)  returns 0x00 (0000ms, 0392ms total)
T2DCC 001:072 JLINK_ReadReg(R0)  returns 0x00000000 (0000ms, 0392ms total)
T2DCC 001:074 JLINK_WriteMem(0x20000188, 0x0278 Bytes, ...) - Data: 00 1C 02 40 00 3C 01 40 F8 B5 02 46 0B 46 00 25 ... -- CPU_WriteMem(632 bytes @ 0x20000188)  returns 0x278 (0005ms, 0397ms total)
T2DCC 001:079 JLINK_WriteMem(0x20000400, 0x0188 Bytes, ...) - Data: 70 BD 01 20 84 F8 90 02 00 BF 29 46 20 68 07 F0 ... -- CPU_WriteMem(392 bytes @ 0x20000400)  returns 0x188 (0004ms, 0401ms total)
T2DCC 001:083 JLINK_WriteReg(R0, 0x08001400)  returns 0x00 (0000ms, 0401ms total)
T2DCC 001:083 JLINK_WriteReg(R1, 0x00000400)  returns 0x00 (0000ms, 0401ms total)
T2DCC 001:083 JLINK_WriteReg(R2, 0x20000188)  returns 0x00 (0000ms, 0401ms total)
T2DCC 001:083 JLINK_WriteReg(R3, 0x00000000)  returns 0x00 (0000ms, 0401ms total)
T2DCC 001:083 JLINK_WriteReg(R4, 0x00000000)  returns 0x00 (0000ms, 0401ms total)
T2DCC 001:083 JLINK_WriteReg(R5, 0x00000000)  returns 0x00 (0000ms, 0401ms total)
T2DCC 001:083 JLINK_WriteReg(R6, 0x00000000)  returns 0x00 (0000ms, 0401ms total)
T2DCC 001:083 JLINK_WriteReg(R7, 0x00000000)  returns 0x00 (0000ms, 0401ms total)
T2DCC 001:083 JLINK_WriteReg(R8, 0x00000000)  returns 0x00 (0000ms, 0401ms total)
T2DCC 001:083 JLINK_WriteReg(R9, 0x20000184)  returns 0x00 (0000ms, 0401ms total)
T2DCC 001:083 JLINK_WriteReg(R10, 0x00000000)  returns 0x00 (0000ms, 0401ms total)
T2DCC 001:083 JLINK_WriteReg(R11, 0x00000000)  returns 0x00 (0000ms, 0401ms total)
T2DCC 001:083 JLINK_WriteReg(R12, 0x00000000)  returns 0x00 (0000ms, 0401ms total)
T2DCC 001:083 JLINK_WriteReg(R13 (SP), 0x20001000)  returns 0x00 (0000ms, 0401ms total)
T2DCC 001:083 JLINK_WriteReg(R14, 0x20000001)  returns 0x00 (0000ms, 0401ms total)
T2DCC 001:083 JLINK_WriteReg(R15 (PC), 0x20000112)  returns 0x00 (0000ms, 0401ms total)
T2DCC 001:083 JLINK_WriteReg(XPSR, 0x01000000)  returns 0x00 (0000ms, 0401ms total)
T2DCC 001:084 JLINK_WriteReg(MSP, 0x20001000)  returns 0x00 (0000ms, 0402ms total)
T2DCC 001:084 JLINK_WriteReg(PSP, 0x20001000)  returns 0x00 (0000ms, 0402ms total)
T2DCC 001:084 JLINK_WriteReg(CFBP, 0x00000000)  returns 0x00 (0000ms, 0402ms total)
T2DCC 001:084 JLINK_SetBPEx(Addr = 0x20000000, Type = 0xFFFFFFF2)  returns 0x0000000D (0000ms, 0402ms total)
T2DCC 001:084 JLINK_Go() -- CPU_ReadMem(4 bytes @ 0xE0001000) (0003ms, 0405ms total)
T2DCC 001:087 JLINK_IsHalted()  returns FALSE (0001ms, 0406ms total)
T2DCC 001:089 JLINK_IsHalted()  returns FALSE (0001ms, 0406ms total)
T2DCC 001:091 JLINK_IsHalted()  returns FALSE (0000ms, 0405ms total)
T2DCC 001:093 JLINK_IsHalted() -- CPU_ReadMem(2 bytes @ 0x20000000)  returns TRUE (0004ms, 0409ms total)
T2DCC 001:097 JLINK_ReadReg(R15 (PC))  returns 0x20000000 (0000ms, 0405ms total)
T2DCC 001:097 JLINK_ClrBPEx(BPHandle = 0x0000000D)  returns 0x00 (0000ms, 0405ms total)
T2DCC 001:097 JLINK_ReadReg(R0)  returns 0x00000000 (0000ms, 0405ms total)
T2DCC 001:098 JLINK_WriteMem(0x20000188, 0x0278 Bytes, ...) - Data: 02 21 05 EB 85 02 04 F1 38 00 00 EB C2 00 81 72 ... -- CPU_WriteMem(632 bytes @ 0x20000188)  returns 0x278 (0005ms, 0410ms total)
T2DCC 001:103 JLINK_WriteMem(0x20000400, 0x0188 Bytes, ...) - Data: 02 D1 20 46 03 F0 97 FA 20 68 07 F0 F1 FC 00 F0 ... -- CPU_WriteMem(392 bytes @ 0x20000400)  returns 0x188 (0004ms, 0414ms total)
T2DCC 001:108 JLINK_WriteReg(R0, 0x08001800)  returns 0x00 (0000ms, 0414ms total)
T2DCC 001:108 JLINK_WriteReg(R1, 0x00000400)  returns 0x00 (0000ms, 0414ms total)
T2DCC 001:108 JLINK_WriteReg(R2, 0x20000188)  returns 0x00 (0000ms, 0414ms total)
T2DCC 001:108 JLINK_WriteReg(R3, 0x00000000)  returns 0x00 (0000ms, 0414ms total)
T2DCC 001:108 JLINK_WriteReg(R4, 0x00000000)  returns 0x00 (0000ms, 0414ms total)
T2DCC 001:108 JLINK_WriteReg(R5, 0x00000000)  returns 0x00 (0000ms, 0414ms total)
T2DCC 001:108 JLINK_WriteReg(R6, 0x00000000)  returns 0x00 (0000ms, 0414ms total)
T2DCC 001:108 JLINK_WriteReg(R7, 0x00000000)  returns 0x00 (0000ms, 0414ms total)
T2DCC 001:108 JLINK_WriteReg(R8, 0x00000000)  returns 0x00 (0000ms, 0414ms total)
T2DCC 001:108 JLINK_WriteReg(R9, 0x20000184)  returns 0x00 (0000ms, 0414ms total)
T2DCC 001:108 JLINK_WriteReg(R10, 0x00000000)  returns 0x00 (0000ms, 0414ms total)
T2DCC 001:108 JLINK_WriteReg(R11, 0x00000000)  returns 0x00 (0000ms, 0414ms total)
T2DCC 001:108 JLINK_WriteReg(R12, 0x00000000)  returns 0x00 (0000ms, 0414ms total)
T2DCC 001:108 JLINK_WriteReg(R13 (SP), 0x20001000)  returns 0x00 (0000ms, 0414ms total)
T2DCC 001:108 JLINK_WriteReg(R14, 0x20000001)  returns 0x00 (0000ms, 0414ms total)
T2DCC 001:108 JLINK_WriteReg(R15 (PC), 0x20000112)  returns 0x00 (0000ms, 0414ms total)
T2DCC 001:108 JLINK_WriteReg(XPSR, 0x01000000)  returns 0x00 (0000ms, 0414ms total)
T2DCC 001:108 JLINK_WriteReg(MSP, 0x20001000)  returns 0x00 (0000ms, 0414ms total)
T2DCC 001:108 JLINK_WriteReg(PSP, 0x20001000)  returns 0x00 (0000ms, 0414ms total)
T2DCC 001:108 JLINK_WriteReg(CFBP, 0x00000000)  returns 0x00 (0000ms, 0414ms total)
T2DCC 001:108 JLINK_SetBPEx(Addr = 0x20000000, Type = 0xFFFFFFF2)  returns 0x0000000E (0000ms, 0414ms total)
T2DCC 001:108 JLINK_Go() -- CPU_ReadMem(4 bytes @ 0xE0001000) (0003ms, 0417ms total)
T2DCC 001:111 JLINK_IsHalted()  returns FALSE (0001ms, 0418ms total)
T2DCC 001:113 JLINK_IsHalted()  returns FALSE (0001ms, 0418ms total)
T2DCC 001:115 JLINK_IsHalted()  returns FALSE (0001ms, 0418ms total)
T2DCC 001:117 JLINK_IsHalted() -- CPU_ReadMem(2 bytes @ 0x20000000)  returns TRUE (0004ms, 0421ms total)
T2DCC 001:121 JLINK_ReadReg(R15 (PC))  returns 0x20000000 (0000ms, 0417ms total)
T2DCC 001:121 JLINK_ClrBPEx(BPHandle = 0x0000000E)  returns 0x00 (0000ms, 0417ms total)
T2DCC 001:121 JLINK_ReadReg(R0)  returns 0x00000000 (0000ms, 0417ms total)
T2DCC 001:122 JLINK_WriteMem(0x20000188, 0x0278 Bytes, ...) - Data: 00 04 02 40 30 38 02 40 10 B5 04 46 D4 F8 94 02 ... -- CPU_WriteMem(632 bytes @ 0x20000188)  returns 0x278 (0006ms, 0423ms total)
T2DCC 001:128 JLINK_WriteMem(0x20000400, 0x0188 Bytes, ...) - Data: 40 F8 26 70 00 20 F0 BD 10 B5 04 46 D4 F8 EC 03 ... -- CPU_WriteMem(392 bytes @ 0x20000400)  returns 0x188 (0003ms, 0426ms total)
T2DCC 001:131 JLINK_WriteReg(R0, 0x08001C00)  returns 0x00 (0000ms, 0426ms total)
T2DCC 001:131 JLINK_WriteReg(R1, 0x00000400)  returns 0x00 (0000ms, 0426ms total)
T2DCC 001:131 JLINK_WriteReg(R2, 0x20000188)  returns 0x00 (0001ms, 0427ms total)
T2DCC 001:132 JLINK_WriteReg(R3, 0x00000000)  returns 0x00 (0000ms, 0427ms total)
T2DCC 001:132 JLINK_WriteReg(R4, 0x00000000)  returns 0x00 (0000ms, 0427ms total)
T2DCC 001:132 JLINK_WriteReg(R5, 0x00000000)  returns 0x00 (0000ms, 0427ms total)
T2DCC 001:132 JLINK_WriteReg(R6, 0x00000000)  returns 0x00 (0000ms, 0427ms total)
T2DCC 001:132 JLINK_WriteReg(R7, 0x00000000)  returns 0x00 (0000ms, 0427ms total)
T2DCC 001:132 JLINK_WriteReg(R8, 0x00000000)  returns 0x00 (0000ms, 0427ms total)
T2DCC 001:132 JLINK_WriteReg(R9, 0x20000184)  returns 0x00 (0000ms, 0427ms total)
T2DCC 001:132 JLINK_WriteReg(R10, 0x00000000)  returns 0x00 (0000ms, 0427ms total)
T2DCC 001:132 JLINK_WriteReg(R11, 0x00000000)  returns 0x00 (0000ms, 0427ms total)
T2DCC 001:132 JLINK_WriteReg(R12, 0x00000000)  returns 0x00 (0000ms, 0427ms total)
T2DCC 001:132 JLINK_WriteReg(R13 (SP), 0x20001000)  returns 0x00 (0000ms, 0427ms total)
T2DCC 001:132 JLINK_WriteReg(R14, 0x20000001)  returns 0x00 (0000ms, 0427ms total)
T2DCC 001:132 JLINK_WriteReg(R15 (PC), 0x20000112)  returns 0x00 (0000ms, 0427ms total)
T2DCC 001:132 JLINK_WriteReg(XPSR, 0x01000000)  returns 0x00 (0000ms, 0427ms total)
T2DCC 001:132 JLINK_WriteReg(MSP, 0x20001000)  returns 0x00 (0000ms, 0427ms total)
T2DCC 001:132 JLINK_WriteReg(PSP, 0x20001000)  returns 0x00 (0000ms, 0427ms total)
T2DCC 001:132 JLINK_WriteReg(CFBP, 0x00000000)  returns 0x00 (0000ms, 0427ms total)
T2DCC 001:132 JLINK_SetBPEx(Addr = 0x20000000, Type = 0xFFFFFFF2)  returns 0x0000000F (0000ms, 0427ms total)
T2DCC 001:132 JLINK_Go() -- CPU_ReadMem(4 bytes @ 0xE0001000) (0003ms, 0430ms total)
T2DCC 001:135 JLINK_IsHalted()  returns FALSE (0001ms, 0431ms total)
T2DCC 001:137 JLINK_IsHalted()  returns FALSE (0001ms, 0431ms total)
T2DCC 001:143 JLINK_IsHalted() -- CPU_ReadMem(2 bytes @ 0x20000000)  returns TRUE (0004ms, 0434ms total)
T2DCC 001:147 JLINK_ReadReg(R15 (PC))  returns 0x20000000 (0000ms, 0430ms total)
T2DCC 001:147 JLINK_ClrBPEx(BPHandle = 0x0000000F)  returns 0x00 (0000ms, 0430ms total)
T2DCC 001:147 JLINK_ReadReg(R0)  returns 0x00000000 (0000ms, 0430ms total)
T2DCC 001:149 JLINK_WriteMem(0x20000188, 0x0278 Bytes, ...) - Data: 06 F0 7F 00 20 70 06 F0 80 00 C0 09 60 70 C4 F8 ... -- CPU_WriteMem(632 bytes @ 0x20000188)  returns 0x278 (0006ms, 0436ms total)
T2DCC 001:155 JLINK_WriteMem(0x20000400, 0x0188 Bytes, ...) - Data: 05 B9 01 E0 0E E0 B2 E2 C5 EB C5 01 04 F5 FC 70 ... -- CPU_WriteMem(392 bytes @ 0x20000400)  returns 0x188 (0003ms, 0439ms total)
T2DCC 001:158 JLINK_WriteReg(R0, 0x08002000)  returns 0x00 (0000ms, 0439ms total)
